
TA074 000:232 SEGGER J-Link V6.52c Log File (0000ms, 0164ms total)
TA074 000:232 DLL Compiled: Oct 11 2019 15:37:13 (0000ms, 0164ms total)
TA074 000:232 Logging started @ 2020-03-15 15:35 (0000ms, 0164ms total)
TA074 000:232 JLINK_SetWarnOutHandler(...) (0000ms, 0164ms total)
TA074 000:232 JLINK_OpenEx(...)
Firmware: J-Link V9 compiled May 17 2019 09:50:41
Hardware: V9.60
S/N: 69651826
Feature(s): RDI, GDB, FlashDL, FlashBP, JFlash
TELNET listener socket opened on port 19021WEBSRV 
Starting webserver (0111ms, 0275ms total)
TA074 000:232 WEBSRV Webserver running on local port 19080 (0112ms, 0276ms total)
TA074 000:232   returns O.K. (0112ms, 0276ms total)
TA074 000:344 JLINK_SetErrorOutHandler(...) (0000ms, 0276ms total)
TA074 000:344 JLINK_ExecCommand("ProjectFile = "D:\Microcontroller code\nrf\NRF52840\3_ble_app_templete_peripheral device\project\mdk5\JLinkSettings.ini"", ...). Ref file found at: C:\Keil_v5\ARM\Segger\JLinkDevices.ref (0008ms, 0284ms total)
TA074 000:344 XML referenced by ref file: C:\Program Files (x86)\SEGGER\JLink_V652c\JLinkDevices.xml (0009ms, 0285ms total)
TA074 000:344 C:\Program Files (x86)\SEGGER\JLink_V652c\JLinkDevices.xml evaluated successfully. (0009ms, 0285ms total)
TA074 000:344   returns 0x00 (0013ms, 0289ms total)
TA074 000:370 JLINK_ExecCommand("Device = nRF52840_xxAA", ...). Device "NRF52840_XXAA" selected.  returns 0x00 (0013ms, 0302ms total)
TA074 000:383 JLINK_ExecCommand("DisableConnectionTimeout", ...).   returns 0x01 (0000ms, 0302ms total)
TA074 000:383 JLINK_GetHardwareVersion()  returns 0x17700 (0000ms, 0302ms total)
TA074 000:383 JLINK_GetDLLVersion()  returns 65203 (0000ms, 0302ms total)
TA074 000:383 JLINK_GetFirmwareString(...)
TA074 000:383 (0000ms, 0302ms total)
TA074 000:413 JLINK_GetDLLVersion()  returns 65203 (0000ms, 0302ms total)
TA074 000:413 JLINK_GetCompileDateTime() (0000ms, 0302ms total)
TA074 000:422 JLINK_GetFirmwareString(...)
TA074 000:422 (0000ms, 0302ms total)
TA074 000:432 JLINK_GetHardwareVersion()  returns 0x17700 (0000ms, 0302ms total)
TA074 000:467 JLINK_TIF_Select(JLINKARM_TIF_SWD)  returns 0x00 (0001ms, 0303ms total)
TA074 000:468 JLINK_SetSpeed(5000) (0000ms, 0303ms total)
TA074 000:468 JLINK_GetId()InitTarget() start J-Link Script File: Executing InitTarget() (0005ms, 0308ms total)
TA074 000:468 InitTarget() endFound SW-DP with ID 0x2BA01477Scanning AP map to find all available APsAP[2]: Stopped AP scan as end of AP map has been reachedAP[0]: AHB-AP (IDR: 0x24770011)AP[1]: JTAG-AP (IDR: 0x02880000)Iterating through AP map to find AHB-AP to useAP[0]: Core foundAP[0]: AHB-AP ROM base: 0xE00FF000CPUID register: 0x410FC241. Implementer code: 0x41 (ARM)Found Cortex-M4 r0p1, Little endian. -- Max. mem block: 0x00010D70 -- CPU_ReadMem(4 bytes @ 0xE000EDF0)
 -- CPU_WriteMem(4 bytes @ 0xE000EDF0) -- CPU_ReadMem(4 bytes @ 0xE0002000)FPUnit: 6 code (BP) slots and 2 literal slots -- CPU_ReadMem(4 bytes @ 0xE000EDFC) -- CPU_WriteMem(4 bytes @ 0xE000EDFC) -- CPU_ReadMem(4 bytes @ 0xE0001000) -- CPU_WriteMem(4 bytes @ 0xE0001000) -- CPU_ReadMem(4 bytes @ 0xE000ED88) -- CPU_WriteMem(4 bytes @ 0xE000ED88) -- CPU_ReadMem(4 bytes @ 0xE000ED88) -- CPU_WriteMem(4 bytes @ 0xE000ED88)CoreSight components:ROMTbl[0] @ E00FF000 -- CPU_ReadMem(16 bytes @ 0xE00FF000)
 -- CPU_ReadMem(16 bytes @ 0xE000EFF0) -- CPU_ReadMem(16 bytes @ 0xE000EFE0)ROMTbl[0][0]: E000E000, CID: B105E00D, PID: 000BB00C SCS-M7 -- CPU_ReadMem(16 bytes @ 0xE0001FF0) -- CPU_ReadMem(16 bytes @ 0xE0001FE0)ROMTbl[0][1]: E0001000, CID: B105E00D, PID: 003BB002 DWT -- CPU_ReadMem(16 bytes @ 0xE0002FF0) -- CPU_ReadMem(16 bytes @ 0xE0002FE0)ROMTbl[0][2]: E0002000, CID: B105E00D, PID: 002BB003 FPB -- CPU_ReadMem(16 bytes @ 0xE0000FF0) -- CPU_ReadMem(16 bytes @ 0xE0000FE0)
ROMTbl[0][3]: E0000000, CID: B105E00D, PID: 003BB001 ITM -- CPU_ReadMem(16 bytes @ 0xE00FF010) -- CPU_ReadMem(16 bytes @ 0xE0040FF0) -- CPU_ReadMem(16 bytes @ 0xE0040FE0)ROMTbl[0][4]: E0040000, CID: B105900D, PID: 000BB9A1 TPIU -- CPU_ReadMem(16 bytes @ 0xE0041FF0) -- CPU_ReadMem(16 bytes @ 0xE0041FE0)ROMTbl[0][5]: E0041000, CID: B105900D, PID: 000BB925 ETM  returns 0x2BA01477 (0285ms, 0588ms total)
TA074 000:753 JLINK_GetDLLVersion()  returns 65203 (0000ms, 0588ms total)
TA074 000:753 JLINK_CORE_GetFound()  returns 0xE0000FF (0000ms, 0588ms total)
TA074 000:753 JLINK_GetDebugInfo(0x100 = JLINKARM_ROM_TABLE_ADDR_INDEX) -- Value=0xE00FF000  returns 0x00 (0000ms, 0588ms total)
TA074 000:758 JLINK_GetDebugInfo(0x100 = JLINKARM_ROM_TABLE_ADDR_INDEX) -- Value=0xE00FF000  returns 0x00 (0000ms, 0588ms total)
TA074 000:758 JLINK_GetDebugInfo(0x101 = JLINKARM_DEBUG_INFO_ETM_ADDR_INDEX) -- Value=0xE0041000  returns 0x00 (0000ms, 0588ms total)
TA074 000:758 JLINK_GetDebugInfo(0x102 = JLINKARM_DEBUG_INFO_MTB_ADDR_INDEX) -- Value=0x00000000  returns 0x00 (0000ms, 0588ms total)
TA074 000:758 JLINK_GetDebugInfo(0x103 = JLINKARM_DEBUG_INFO_TPIU_ADDR_INDEX) -- Value=0xE0040000  returns 0x00 (0000ms, 0588ms total)
TA074 000:758 JLINK_GetDebugInfo(0x104 = JLINKARM_DEBUG_INFO_ITM_ADDR_INDEX) -- Value=0xE0000000  returns 0x00 (0000ms, 0588ms total)
TA074 000:758 JLINK_GetDebugInfo(0x105 = JLINKARM_DEBUG_INFO_DWT_ADDR_INDEX) -- Value=0xE0001000  returns 0x00 (0000ms, 0588ms total)
TA074 000:758 JLINK_GetDebugInfo(0x106 = JLINKARM_DEBUG_INFO_FPB_ADDR_INDEX) -- Value=0xE0002000  returns 0x00 (0000ms, 0588ms total)
TA074 000:758 JLINK_GetDebugInfo(0x107 = JLINKARM_DEBUG_INFO_NVIC_ADDR_INDEX) -- Value=0xE000E000  returns 0x00 (0000ms, 0588ms total)
TA074 000:758 JLINK_GetDebugInfo(0x10C = JLINKARM_DEBUG_INFO_DBG_ADDR_INDEX) -- Value=0xE000EDF0  returns 0x00 (0000ms, 0588ms total)
TA074 000:758 JLINK_ReadMemU32(0xE000EF40, 0x0001 Items, ...) -- CPU_ReadMem(4 bytes @ 0xE000EF40) - Data: 21 00 11 10  returns 1 (0001ms, 0589ms total)
TA074 000:759 JLINK_ReadMemU32(0xE000EF44, 0x0001 Items, ...) -- CPU_ReadMem(4 bytes @ 0xE000EF44) - Data: 11 00 00 11  returns 1 (0000ms, 0589ms total)
TA074 000:759 JLINK_ReadMemU32(0xE000ED00, 0x0001 Items, ...) -- CPU_ReadMem(4 bytes @ 0xE000ED00) - Data: 41 C2 0F 41  returns 1 (0000ms, 0589ms total)
TA074 000:759 JLINK_SetResetType(JLINKARM_CM3_RESET_TYPE_NORMAL)  returns JLINKARM_CM3_RESET_TYPE_NORMAL (0000ms, 0589ms total)
TA074 000:759 JLINK_Reset() -- CPU is running -- CPU_WriteMem(4 bytes @ 0xE000EDF0) -- CPU is running -- CPU_WriteMem(4 bytes @ 0xE000EDFC)Reset: Halt core after reset via DEMCR.VC_CORERESET.Reset: Reset device via AIRCR.SYSRESETREQ. -- CPU is running -- CPU_WriteMem(4 bytes @ 0xE000ED0C) -- CPU_ReadMem(4 bytes @ 0xE000EDF0) -- CPU_ReadMem(4 bytes @ 0xE000EDF0) -- CPU is running -- CPU_WriteMem(4 bytes @ 0xE000EDF0) -- CPU is running -- CPU_WriteMem(4 bytes @ 0xE000EDFC)
 -- CPU_ReadMem(4 bytes @ 0xE000EDF0) -- CPU_WriteMem(4 bytes @ 0xE0002000) -- CPU_ReadMem(4 bytes @ 0xE000EDFC) -- CPU_ReadMem(4 bytes @ 0xE0001000) (0081ms, 0670ms total)
TA074 000:840 JLINK_Halt()  returns 0x00 (0000ms, 0670ms total)
TA074 000:840 JLINK_IsHalted()  returns TRUE (0000ms, 0670ms total)
TA074 000:840 JLINK_ReadMemU32(0xE000EDF0, 0x0001 Items, ...) -- CPU_ReadMem(4 bytes @ 0xE000EDF0) - Data: 03 00 03 00  returns 1 (0000ms, 0670ms total)
TA074 000:840 JLINK_WriteU32(0xE000EDF0, 0xA05F0003) -- CPU_WriteMem(4 bytes @ 0xE000EDF0)  returns 0 (0001ms, 0671ms total)
TA074 000:841 JLINK_WriteU32(0xE000EDFC, 0x01000000) -- CPU_WriteMem(4 bytes @ 0xE000EDFC)  returns 0 (0000ms, 0671ms total)
TA074 000:868 JLINK_GetHWStatus(...)  returns 0x00 (0000ms, 0671ms total)
TA074 000:885 JLINK_GetNumBPUnits(Type = 0xFFFFFF00)  returns 0x06 (0000ms, 0671ms total)
TA074 000:885 JLINK_GetNumBPUnits(Type = 0xF0)  returns 0x2000 (0000ms, 0671ms total)
TA074 000:885 JLINK_GetNumWPUnits()  returns 0x04 (0000ms, 0671ms total)
TA074 000:905 JLINK_GetSpeed()  returns 0xFA0 (0000ms, 0671ms total)
TA074 000:916 JLINK_ReadMemU32(0xE000E004, 0x0001 Items, ...) -- CPU_ReadMem(4 bytes @ 0xE000E004) - Data: 01 00 00 00  returns 1 (0001ms, 0672ms total)
TA074 000:917 JLINK_ReadMemU32(0xE000E004, 0x0001 Items, ...) -- CPU_ReadMem(4 bytes @ 0xE000E004) - Data: 01 00 00 00  returns 1 (0000ms, 0672ms total)
TA074 000:917 JLINK_WriteMem(0xE0001000, 0x001C Bytes, ...) - Data: 01 00 00 00 00 00 00 00 00 00 00 00 00 00 00 00 ... -- CPU_WriteMem(28 bytes @ 0xE0001000)  returns 0x1C (0001ms, 0673ms total)
TA074 000:918 JLINK_ReadMem (0xE0001000, 0x001C Bytes, ...) -- CPU_ReadMem(28 bytes @ 0xE0001000) - Data: 01 00 00 40 00 00 00 00 00 00 00 00 00 00 00 00 ...  returns 0x00 (0000ms, 0673ms total)
TA074 000:918 JLINK_Halt()  returns 0x00 (0000ms, 0673ms total)
TA074 000:918 JLINK_IsHalted()  returns TRUE (0000ms, 0673ms total)
TA074 000:925 JLINK_WriteMem(0x20000000, 0x0248 Bytes, ...) - Data: 00 BE 0A E0 0D 78 2D 06 68 40 08 24 40 00 00 D3 ... -- CPU_WriteMem(584 bytes @ 0x20000000)  returns 0x248 (0003ms, 0676ms total)
TA074 000:928 JLINK_WriteReg(R0, 0x00000000)  returns 0x00 (0000ms, 0676ms total)
TA074 000:928 JLINK_WriteReg(R1, 0x00B71B00)  returns 0x00 (0000ms, 0676ms total)
TA074 000:928 JLINK_WriteReg(R2, 0x00000001)  returns 0x00 (0000ms, 0676ms total)
TA074 000:928 JLINK_WriteReg(R3, 0x00000000)  returns 0x00 (0001ms, 0677ms total)
TA074 000:929 JLINK_WriteReg(R4, 0x00000000)  returns 0x00 (0000ms, 0677ms total)
TA074 000:929 JLINK_WriteReg(R5, 0x00000000)  returns 0x00 (0000ms, 0677ms total)
TA074 000:929 JLINK_WriteReg(R6, 0x00000000)  returns 0x00 (0000ms, 0677ms total)
TA074 000:929 JLINK_WriteReg(R7, 0x00000000)  returns 0x00 (0000ms, 0677ms total)
TA074 000:929 JLINK_WriteReg(R8, 0x00000000)  returns 0x00 (0000ms, 0677ms total)
TA074 000:929 JLINK_WriteReg(R9, 0x20000244)  returns 0x00 (0000ms, 0677ms total)
TA074 000:929 JLINK_WriteReg(R10, 0x00000000)  returns 0x00 (0000ms, 0677ms total)
TA074 000:929 JLINK_WriteReg(R11, 0x00000000)  returns 0x00 (0000ms, 0677ms total)
TA074 000:929 JLINK_WriteReg(R12, 0x00000000)  returns 0x00 (0000ms, 0677ms total)
TA074 000:929 JLINK_WriteReg(R13 (SP), 0x20004000)  returns 0x00 (0000ms, 0677ms total)
TA074 000:929 JLINK_WriteReg(R14, 0x20000001)  returns 0x00 (0000ms, 0677ms total)
TA074 000:929 JLINK_WriteReg(R15 (PC), 0x20000048)  returns 0x00 (0000ms, 0677ms total)
TA074 000:929 JLINK_WriteReg(XPSR, 0x01000000)  returns 0x00 (0000ms, 0677ms total)
TA074 000:929 JLINK_WriteReg(MSP, 0x20004000)  returns 0x00 (0000ms, 0677ms total)
TA074 000:929 JLINK_WriteReg(PSP, 0x20004000)  returns 0x00 (0000ms, 0677ms total)
TA074 000:929 JLINK_WriteReg(CFBP, 0x00000000)  returns 0x00 (0000ms, 0677ms total)
TA074 000:929 JLINK_SetBPEx(Addr = 0x20000000, Type = 0xFFFFFFF2) -- CPU_ReadMem(2 bytes @ 0x20000000)  returns 0x00000001 (0001ms, 0678ms total)
TA074 000:930 JLINK_Go() -- CPU_WriteMem(2 bytes @ 0x20000000) -- CPU_ReadMem(4 bytes @ 0xE0001000) -- CPU_WriteMem(4 bytes @ 0xE0002008) -- CPU_WriteMem(4 bytes @ 0xE000200C) -- CPU_WriteMem(4 bytes @ 0xE0002010) -- CPU_WriteMem(4 bytes @ 0xE0002014) -- CPU_WriteMem(4 bytes @ 0xE0002018) -- CPU_WriteMem(4 bytes @ 0xE000201C) -- CPU_WriteMem(4 bytes @ 0xE0001004) (0005ms, 0683ms total)
TA074 000:935 JLINK_IsHalted() -- CPU_ReadMem(2 bytes @ 0x20000000)  returns TRUE (0002ms, 0685ms total)
TA074 000:937 JLINK_ReadReg(R15 (PC))  returns 0x20000000 (0000ms, 0683ms total)
TA074 000:937 JLINK_ClrBPEx(BPHandle = 0x00000001)  returns 0x00 (0000ms, 0683ms total)
TA074 000:937 JLINK_ReadReg(R0)  returns 0x00000000 (0000ms, 0683ms total)
TA074 000:938 JLINK_WriteReg(R0, 0x00026000)  returns 0x00 (0000ms, 0683ms total)
TA074 000:938 JLINK_WriteReg(R1, 0x00001000)  returns 0x00 (0000ms, 0683ms total)
TA074 000:938 JLINK_WriteReg(R2, 0x000000FF)  returns 0x00 (0000ms, 0683ms total)
TA074 000:938 JLINK_WriteReg(R3, 0x00000000)  returns 0x00 (0000ms, 0683ms total)
TA074 000:938 JLINK_WriteReg(R4, 0x00000000)  returns 0x00 (0000ms, 0683ms total)
TA074 000:938 JLINK_WriteReg(R5, 0x00000000)  returns 0x00 (0000ms, 0683ms total)
TA074 000:938 JLINK_WriteReg(R6, 0x00000000)  returns 0x00 (0000ms, 0683ms total)
TA074 000:938 JLINK_WriteReg(R7, 0x00000000)  returns 0x00 (0000ms, 0683ms total)
TA074 000:938 JLINK_WriteReg(R8, 0x00000000)  returns 0x00 (0000ms, 0683ms total)
TA074 000:938 JLINK_WriteReg(R9, 0x20000244)  returns 0x00 (0000ms, 0683ms total)
TA074 000:938 JLINK_WriteReg(R10, 0x00000000)  returns 0x00 (0000ms, 0683ms total)
TA074 000:938 JLINK_WriteReg(R11, 0x00000000)  returns 0x00 (0000ms, 0683ms total)
TA074 000:938 JLINK_WriteReg(R12, 0x00000000)  returns 0x00 (0000ms, 0683ms total)
TA074 000:938 JLINK_WriteReg(R13 (SP), 0x20004000)  returns 0x00 (0000ms, 0683ms total)
TA074 000:939 JLINK_WriteReg(R14, 0x20000001)  returns 0x00 (0000ms, 0684ms total)
TA074 000:939 JLINK_WriteReg(R15 (PC), 0x2000012E)  returns 0x00 (0000ms, 0684ms total)
TA074 000:939 JLINK_WriteReg(XPSR, 0x01000000)  returns 0x00 (0000ms, 0684ms total)
TA074 000:939 JLINK_WriteReg(MSP, 0x20004000)  returns 0x00 (0000ms, 0684ms total)
TA074 000:939 JLINK_WriteReg(PSP, 0x20004000)  returns 0x00 (0000ms, 0684ms total)
TA074 000:939 JLINK_WriteReg(CFBP, 0x00000000)  returns 0x00 (0000ms, 0684ms total)
TA074 000:939 JLINK_SetBPEx(Addr = 0x20000000, Type = 0xFFFFFFF2)  returns 0x00000002 (0000ms, 0684ms total)
TA074 000:939 JLINK_Go() -- CPU_ReadMem(4 bytes @ 0xE0001000) (0002ms, 0686ms total)
TA074 000:941 JLINK_IsHalted()  returns FALSE (0000ms, 0686ms total)
TA074 001:110 JLINK_IsHalted() -- CPU_ReadMem(2 bytes @ 0x20000000)  returns TRUE (0002ms, 0688ms total)
TA074 001:112 JLINK_ReadReg(R15 (PC))  returns 0x20000000 (0000ms, 0686ms total)
TA074 001:112 JLINK_ClrBPEx(BPHandle = 0x00000002)  returns 0x00 (0000ms, 0686ms total)
TA074 001:112 JLINK_ReadReg(R0)  returns 0x00000000 (0000ms, 0686ms total)
TA074 001:114 JLINK_WriteReg(R0, 0x00027000)  returns 0x00 (0000ms, 0686ms total)
TA074 001:114 JLINK_WriteReg(R1, 0x00001000)  returns 0x00 (0000ms, 0686ms total)
TA074 001:114 JLINK_WriteReg(R2, 0x000000FF)  returns 0x00 (0000ms, 0686ms total)
TA074 001:115 JLINK_WriteReg(R3, 0x00000000)  returns 0x00 (0000ms, 0687ms total)
TA074 001:115 JLINK_WriteReg(R4, 0x00000000)  returns 0x00 (0000ms, 0687ms total)
TA074 001:115 JLINK_WriteReg(R5, 0x00000000)  returns 0x00 (0000ms, 0687ms total)
TA074 001:115 JLINK_WriteReg(R6, 0x00000000)  returns 0x00 (0000ms, 0687ms total)
TA074 001:115 JLINK_WriteReg(R7, 0x00000000)  returns 0x00 (0000ms, 0687ms total)
TA074 001:115 JLINK_WriteReg(R8, 0x00000000)  returns 0x00 (0000ms, 0687ms total)
TA074 001:115 JLINK_WriteReg(R9, 0x20000244)  returns 0x00 (0000ms, 0687ms total)
TA074 001:115 JLINK_WriteReg(R10, 0x00000000)  returns 0x00 (0000ms, 0687ms total)
TA074 001:115 JLINK_WriteReg(R11, 0x00000000)  returns 0x00 (0000ms, 0687ms total)
TA074 001:115 JLINK_WriteReg(R12, 0x00000000)  returns 0x00 (0000ms, 0687ms total)
TA074 001:115 JLINK_WriteReg(R13 (SP), 0x20004000)  returns 0x00 (0000ms, 0687ms total)
TA074 001:115 JLINK_WriteReg(R14, 0x20000001)  returns 0x00 (0000ms, 0687ms total)
TA074 001:115 JLINK_WriteReg(R15 (PC), 0x2000012E)  returns 0x00 (0000ms, 0687ms total)
TA074 001:115 JLINK_WriteReg(XPSR, 0x01000000)  returns 0x00 (0000ms, 0687ms total)
TA074 001:115 JLINK_WriteReg(MSP, 0x20004000)  returns 0x00 (0000ms, 0687ms total)
TA074 001:115 JLINK_WriteReg(PSP, 0x20004000)  returns 0x00 (0000ms, 0687ms total)
TA074 001:115 JLINK_WriteReg(CFBP, 0x00000000)  returns 0x00 (0000ms, 0687ms total)
TA074 001:115 JLINK_SetBPEx(Addr = 0x20000000, Type = 0xFFFFFFF2)  returns 0x00000003 (0000ms, 0687ms total)
TA074 001:115 JLINK_Go() -- CPU_ReadMem(4 bytes @ 0xE0001000) (0003ms, 0690ms total)
TA074 001:118 JLINK_IsHalted()  returns FALSE (0000ms, 0690ms total)
TA074 001:120 JLINK_IsHalted() -- CPU_ReadMem(2 bytes @ 0x20000000)  returns TRUE (0002ms, 0692ms total)
TA074 001:122 JLINK_ReadReg(R15 (PC))  returns 0x20000000 (0000ms, 0690ms total)
TA074 001:122 JLINK_ClrBPEx(BPHandle = 0x00000003)  returns 0x00 (0000ms, 0690ms total)
TA074 001:122 JLINK_ReadReg(R0)  returns 0x00000000 (0000ms, 0690ms total)
TA074 001:123 JLINK_WriteReg(R0, 0x00028000)  returns 0x00 (0000ms, 0690ms total)
TA074 001:123 JLINK_WriteReg(R1, 0x00001000)  returns 0x00 (0000ms, 0690ms total)
TA074 001:123 JLINK_WriteReg(R2, 0x000000FF)  returns 0x00 (0000ms, 0690ms total)
TA074 001:123 JLINK_WriteReg(R3, 0x00000000)  returns 0x00 (0000ms, 0690ms total)
TA074 001:124 JLINK_WriteReg(R4, 0x00000000)  returns 0x00 (0000ms, 0690ms total)
TA074 001:124 JLINK_WriteReg(R5, 0x00000000)  returns 0x00 (0000ms, 0690ms total)
TA074 001:124 JLINK_WriteReg(R6, 0x00000000)  returns 0x00 (0000ms, 0690ms total)
TA074 001:124 JLINK_WriteReg(R7, 0x00000000)  returns 0x00 (0000ms, 0690ms total)
TA074 001:124 JLINK_WriteReg(R8, 0x00000000)  returns 0x00 (0000ms, 0690ms total)
TA074 001:124 JLINK_WriteReg(R9, 0x20000244)  returns 0x00 (0000ms, 0690ms total)
TA074 001:124 JLINK_WriteReg(R10, 0x00000000)  returns 0x00 (0000ms, 0690ms total)
TA074 001:124 JLINK_WriteReg(R11, 0x00000000)  returns 0x00 (0000ms, 0690ms total)
TA074 001:124 JLINK_WriteReg(R12, 0x00000000)  returns 0x00 (0000ms, 0690ms total)
TA074 001:124 JLINK_WriteReg(R13 (SP), 0x20004000)  returns 0x00 (0000ms, 0690ms total)
TA074 001:124 JLINK_WriteReg(R14, 0x20000001)  returns 0x00 (0000ms, 0690ms total)
TA074 001:124 JLINK_WriteReg(R15 (PC), 0x2000012E)  returns 0x00 (0000ms, 0690ms total)
TA074 001:124 JLINK_WriteReg(XPSR, 0x01000000)  returns 0x00 (0000ms, 0690ms total)
TA074 001:124 JLINK_WriteReg(MSP, 0x20004000)  returns 0x00 (0000ms, 0690ms total)
TA074 001:124 JLINK_WriteReg(PSP, 0x20004000)  returns 0x00 (0000ms, 0690ms total)
TA074 001:124 JLINK_WriteReg(CFBP, 0x00000000)  returns 0x00 (0000ms, 0690ms total)
TA074 001:124 JLINK_SetBPEx(Addr = 0x20000000, Type = 0xFFFFFFF2)  returns 0x00000004 (0000ms, 0690ms total)
TA074 001:124 JLINK_Go() -- CPU_ReadMem(4 bytes @ 0xE0001000) (0003ms, 0693ms total)
TA074 001:127 JLINK_IsHalted()  returns FALSE (0000ms, 0693ms total)
TA074 001:129 JLINK_IsHalted() -- CPU_ReadMem(2 bytes @ 0x20000000)  returns TRUE (0003ms, 0696ms total)
TA074 001:132 JLINK_ReadReg(R15 (PC))  returns 0x20000000 (0000ms, 0693ms total)
TA074 001:132 JLINK_ClrBPEx(BPHandle = 0x00000004)  returns 0x00 (0000ms, 0693ms total)
TA074 001:132 JLINK_ReadReg(R0)  returns 0x00000000 (0000ms, 0693ms total)
TA074 001:133 JLINK_WriteReg(R0, 0x00029000)  returns 0x00 (0000ms, 0693ms total)
TA074 001:133 JLINK_WriteReg(R1, 0x00001000)  returns 0x00 (0000ms, 0693ms total)
TA074 001:133 JLINK_WriteReg(R2, 0x000000FF)  returns 0x00 (0000ms, 0693ms total)
TA074 001:133 JLINK_WriteReg(R3, 0x00000000)  returns 0x00 (0000ms, 0693ms total)
TA074 001:133 JLINK_WriteReg(R4, 0x00000000)  returns 0x00 (0000ms, 0693ms total)
TA074 001:133 JLINK_WriteReg(R5, 0x00000000)  returns 0x00 (0000ms, 0693ms total)
TA074 001:133 JLINK_WriteReg(R6, 0x00000000)  returns 0x00 (0000ms, 0693ms total)
TA074 001:133 JLINK_WriteReg(R7, 0x00000000)  returns 0x00 (0000ms, 0693ms total)
TA074 001:133 JLINK_WriteReg(R8, 0x00000000)  returns 0x00 (0000ms, 0693ms total)
TA074 001:133 JLINK_WriteReg(R9, 0x20000244)  returns 0x00 (0000ms, 0693ms total)
TA074 001:133 JLINK_WriteReg(R10, 0x00000000)  returns 0x00 (0000ms, 0693ms total)
TA074 001:133 JLINK_WriteReg(R11, 0x00000000)  returns 0x00 (0000ms, 0693ms total)
TA074 001:133 JLINK_WriteReg(R12, 0x00000000)  returns 0x00 (0000ms, 0693ms total)
TA074 001:133 JLINK_WriteReg(R13 (SP), 0x20004000)  returns 0x00 (0000ms, 0693ms total)
TA074 001:133 JLINK_WriteReg(R14, 0x20000001)  returns 0x00 (0000ms, 0693ms total)
TA074 001:133 JLINK_WriteReg(R15 (PC), 0x2000012E)  returns 0x00 (0000ms, 0693ms total)
TA074 001:133 JLINK_WriteReg(XPSR, 0x01000000)  returns 0x00 (0000ms, 0693ms total)
TA074 001:133 JLINK_WriteReg(MSP, 0x20004000)  returns 0x00 (0000ms, 0693ms total)
TA074 001:133 JLINK_WriteReg(PSP, 0x20004000)  returns 0x00 (0000ms, 0693ms total)
TA074 001:133 JLINK_WriteReg(CFBP, 0x00000000)  returns 0x00 (0000ms, 0693ms total)
TA074 001:133 JLINK_SetBPEx(Addr = 0x20000000, Type = 0xFFFFFFF2)  returns 0x00000005 (0000ms, 0693ms total)
TA074 001:133 JLINK_Go() -- CPU_ReadMem(4 bytes @ 0xE0001000) (0003ms, 0696ms total)
TA074 001:136 JLINK_IsHalted()  returns FALSE (0000ms, 0696ms total)
TA074 001:138 JLINK_IsHalted() -- CPU_ReadMem(2 bytes @ 0x20000000)  returns TRUE (0002ms, 0698ms total)
TA074 001:140 JLINK_ReadReg(R15 (PC))  returns 0x20000000 (0000ms, 0696ms total)
TA074 001:140 JLINK_ClrBPEx(BPHandle = 0x00000005)  returns 0x00 (0000ms, 0696ms total)
TA074 001:140 JLINK_ReadReg(R0)  returns 0x00000000 (0000ms, 0696ms total)
TA074 001:141 JLINK_WriteReg(R0, 0x0002A000)  returns 0x00 (0000ms, 0696ms total)
TA074 001:141 JLINK_WriteReg(R1, 0x00001000)  returns 0x00 (0000ms, 0696ms total)
TA074 001:141 JLINK_WriteReg(R2, 0x000000FF)  returns 0x00 (0000ms, 0696ms total)
TA074 001:141 JLINK_WriteReg(R3, 0x00000000)  returns 0x00 (0000ms, 0696ms total)
TA074 001:141 JLINK_WriteReg(R4, 0x00000000)  returns 0x00 (0000ms, 0696ms total)
TA074 001:141 JLINK_WriteReg(R5, 0x00000000)  returns 0x00 (0000ms, 0696ms total)
TA074 001:141 JLINK_WriteReg(R6, 0x00000000)  returns 0x00 (0000ms, 0696ms total)
TA074 001:141 JLINK_WriteReg(R7, 0x00000000)  returns 0x00 (0000ms, 0696ms total)
TA074 001:141 JLINK_WriteReg(R8, 0x00000000)  returns 0x00 (0000ms, 0696ms total)
TA074 001:141 JLINK_WriteReg(R9, 0x20000244)  returns 0x00 (0000ms, 0696ms total)
TA074 001:141 JLINK_WriteReg(R10, 0x00000000)  returns 0x00 (0000ms, 0696ms total)
TA074 001:141 JLINK_WriteReg(R11, 0x00000000)  returns 0x00 (0000ms, 0696ms total)
TA074 001:141 JLINK_WriteReg(R12, 0x00000000)  returns 0x00 (0000ms, 0696ms total)
TA074 001:141 JLINK_WriteReg(R13 (SP), 0x20004000)  returns 0x00 (0000ms, 0696ms total)
TA074 001:141 JLINK_WriteReg(R14, 0x20000001)  returns 0x00 (0000ms, 0696ms total)
TA074 001:141 JLINK_WriteReg(R15 (PC), 0x2000012E)  returns 0x00 (0000ms, 0696ms total)
TA074 001:141 JLINK_WriteReg(XPSR, 0x01000000)  returns 0x00 (0000ms, 0696ms total)
TA074 001:141 JLINK_WriteReg(MSP, 0x20004000)  returns 0x00 (0000ms, 0696ms total)
TA074 001:142 JLINK_WriteReg(PSP, 0x20004000)  returns 0x00 (0000ms, 0697ms total)
TA074 001:142 JLINK_WriteReg(CFBP, 0x00000000)  returns 0x00 (0000ms, 0697ms total)
TA074 001:142 JLINK_SetBPEx(Addr = 0x20000000, Type = 0xFFFFFFF2)  returns 0x00000006 (0000ms, 0697ms total)
TA074 001:142 JLINK_Go() -- CPU_ReadMem(4 bytes @ 0xE0001000) (0002ms, 0699ms total)
TA074 001:144 JLINK_IsHalted()  returns FALSE (0000ms, 0699ms total)
TA074 001:146 JLINK_IsHalted() -- CPU_ReadMem(2 bytes @ 0x20000000)  returns TRUE (0002ms, 0701ms total)
TA074 001:148 JLINK_ReadReg(R15 (PC))  returns 0x20000000 (0000ms, 0699ms total)
TA074 001:148 JLINK_ClrBPEx(BPHandle = 0x00000006)  returns 0x00 (0000ms, 0699ms total)
TA074 001:148 JLINK_ReadReg(R0)  returns 0x00000000 (0000ms, 0699ms total)
TA074 001:149 JLINK_WriteReg(R0, 0x0002B000)  returns 0x00 (0000ms, 0699ms total)
TA074 001:149 JLINK_WriteReg(R1, 0x00001000)  returns 0x00 (0000ms, 0699ms total)
TA074 001:149 JLINK_WriteReg(R2, 0x000000FF)  returns 0x00 (0000ms, 0699ms total)
TA074 001:149 JLINK_WriteReg(R3, 0x00000000)  returns 0x00 (0000ms, 0699ms total)
TA074 001:149 JLINK_WriteReg(R4, 0x00000000)  returns 0x00 (0000ms, 0699ms total)
TA074 001:149 JLINK_WriteReg(R5, 0x00000000)  returns 0x00 (0000ms, 0699ms total)
TA074 001:149 JLINK_WriteReg(R6, 0x00000000)  returns 0x00 (0000ms, 0699ms total)
TA074 001:149 JLINK_WriteReg(R7, 0x00000000)  returns 0x00 (0000ms, 0699ms total)
TA074 001:149 JLINK_WriteReg(R8, 0x00000000)  returns 0x00 (0000ms, 0699ms total)
TA074 001:149 JLINK_WriteReg(R9, 0x20000244)  returns 0x00 (0000ms, 0699ms total)
TA074 001:149 JLINK_WriteReg(R10, 0x00000000)  returns 0x00 (0000ms, 0699ms total)
TA074 001:149 JLINK_WriteReg(R11, 0x00000000)  returns 0x00 (0000ms, 0699ms total)
TA074 001:149 JLINK_WriteReg(R12, 0x00000000)  returns 0x00 (0000ms, 0699ms total)
TA074 001:149 JLINK_WriteReg(R13 (SP), 0x20004000)  returns 0x00 (0000ms, 0699ms total)
TA074 001:149 JLINK_WriteReg(R14, 0x20000001)  returns 0x00 (0001ms, 0700ms total)
TA074 001:150 JLINK_WriteReg(R15 (PC), 0x2000012E)  returns 0x00 (0000ms, 0700ms total)
TA074 001:150 JLINK_WriteReg(XPSR, 0x01000000)  returns 0x00 (0000ms, 0700ms total)
TA074 001:150 JLINK_WriteReg(MSP, 0x20004000)  returns 0x00 (0000ms, 0700ms total)
TA074 001:150 JLINK_WriteReg(PSP, 0x20004000)  returns 0x00 (0000ms, 0700ms total)
TA074 001:150 JLINK_WriteReg(CFBP, 0x00000000)  returns 0x00 (0000ms, 0700ms total)
TA074 001:150 JLINK_SetBPEx(Addr = 0x20000000, Type = 0xFFFFFFF2)  returns 0x00000007 (0000ms, 0700ms total)
TA074 001:150 JLINK_Go() -- CPU_ReadMem(4 bytes @ 0xE0001000) (0002ms, 0702ms total)
TA074 001:152 JLINK_IsHalted()  returns FALSE (0000ms, 0702ms total)
TA074 001:154 JLINK_IsHalted() -- CPU_ReadMem(2 bytes @ 0x20000000)  returns TRUE (0002ms, 0704ms total)
TA074 001:156 JLINK_ReadReg(R15 (PC))  returns 0x20000000 (0000ms, 0702ms total)
TA074 001:156 JLINK_ClrBPEx(BPHandle = 0x00000007)  returns 0x00 (0000ms, 0702ms total)
TA074 001:156 JLINK_ReadReg(R0)  returns 0x00000000 (0000ms, 0702ms total)
TA074 001:157 JLINK_WriteReg(R0, 0x0002C000)  returns 0x00 (0000ms, 0702ms total)
TA074 001:157 JLINK_WriteReg(R1, 0x00001000)  returns 0x00 (0000ms, 0702ms total)
TA074 001:157 JLINK_WriteReg(R2, 0x000000FF)  returns 0x00 (0000ms, 0702ms total)
TA074 001:157 JLINK_WriteReg(R3, 0x00000000)  returns 0x00 (0000ms, 0702ms total)
TA074 001:157 JLINK_WriteReg(R4, 0x00000000)  returns 0x00 (0000ms, 0702ms total)
TA074 001:157 JLINK_WriteReg(R5, 0x00000000)  returns 0x00 (0000ms, 0702ms total)
TA074 001:157 JLINK_WriteReg(R6, 0x00000000)  returns 0x00 (0000ms, 0702ms total)
TA074 001:157 JLINK_WriteReg(R7, 0x00000000)  returns 0x00 (0000ms, 0702ms total)
TA074 001:157 JLINK_WriteReg(R8, 0x00000000)  returns 0x00 (0000ms, 0702ms total)
TA074 001:157 JLINK_WriteReg(R9, 0x20000244)  returns 0x00 (0000ms, 0702ms total)
TA074 001:157 JLINK_WriteReg(R10, 0x00000000)  returns 0x00 (0000ms, 0702ms total)
TA074 001:157 JLINK_WriteReg(R11, 0x00000000)  returns 0x00 (0000ms, 0702ms total)
TA074 001:157 JLINK_WriteReg(R12, 0x00000000)  returns 0x00 (0000ms, 0702ms total)
TA074 001:157 JLINK_WriteReg(R13 (SP), 0x20004000)  returns 0x00 (0000ms, 0702ms total)
TA074 001:157 JLINK_WriteReg(R14, 0x20000001)  returns 0x00 (0000ms, 0702ms total)
TA074 001:157 JLINK_WriteReg(R15 (PC), 0x2000012E)  returns 0x00 (0000ms, 0702ms total)
TA074 001:157 JLINK_WriteReg(XPSR, 0x01000000)  returns 0x00 (0000ms, 0702ms total)
TA074 001:157 JLINK_WriteReg(MSP, 0x20004000)  returns 0x00 (0000ms, 0702ms total)
TA074 001:157 JLINK_WriteReg(PSP, 0x20004000)  returns 0x00 (0000ms, 0702ms total)
TA074 001:157 JLINK_WriteReg(CFBP, 0x00000000)  returns 0x00 (0000ms, 0702ms total)
TA074 001:157 JLINK_SetBPEx(Addr = 0x20000000, Type = 0xFFFFFFF2)  returns 0x00000008 (0000ms, 0702ms total)
TA074 001:157 JLINK_Go() -- CPU_ReadMem(4 bytes @ 0xE0001000) (0003ms, 0705ms total)
TA074 001:160 JLINK_IsHalted()  returns FALSE (0000ms, 0705ms total)
TA074 001:164 JLINK_IsHalted() -- CPU_ReadMem(2 bytes @ 0x20000000)  returns TRUE (0003ms, 0708ms total)
TA074 001:167 JLINK_ReadReg(R15 (PC))  returns 0x20000000 (0000ms, 0705ms total)
TA074 001:167 JLINK_ClrBPEx(BPHandle = 0x00000008)  returns 0x00 (0000ms, 0705ms total)
TA074 001:167 JLINK_ReadReg(R0)  returns 0x00000000 (0000ms, 0705ms total)
TA074 001:167 JLINK_WriteReg(R0, 0x0002D000)  returns 0x00 (0000ms, 0705ms total)
TA074 001:167 JLINK_WriteReg(R1, 0x00001000)  returns 0x00 (0000ms, 0705ms total)
TA074 001:167 JLINK_WriteReg(R2, 0x000000FF)  returns 0x00 (0000ms, 0705ms total)
TA074 001:167 JLINK_WriteReg(R3, 0x00000000)  returns 0x00 (0000ms, 0705ms total)
TA074 001:167 JLINK_WriteReg(R4, 0x00000000)  returns 0x00 (0000ms, 0705ms total)
TA074 001:167 JLINK_WriteReg(R5, 0x00000000)  returns 0x00 (0000ms, 0705ms total)
TA074 001:167 JLINK_WriteReg(R6, 0x00000000)  returns 0x00 (0000ms, 0705ms total)
TA074 001:168 JLINK_WriteReg(R7, 0x00000000)  returns 0x00 (0000ms, 0705ms total)
TA074 001:168 JLINK_WriteReg(R8, 0x00000000)  returns 0x00 (0000ms, 0705ms total)
TA074 001:168 JLINK_WriteReg(R9, 0x20000244)  returns 0x00 (0000ms, 0705ms total)
TA074 001:168 JLINK_WriteReg(R10, 0x00000000)  returns 0x00 (0000ms, 0705ms total)
TA074 001:168 JLINK_WriteReg(R11, 0x00000000)  returns 0x00 (0000ms, 0705ms total)
TA074 001:168 JLINK_WriteReg(R12, 0x00000000)  returns 0x00 (0000ms, 0705ms total)
TA074 001:168 JLINK_WriteReg(R13 (SP), 0x20004000)  returns 0x00 (0000ms, 0705ms total)
TA074 001:168 JLINK_WriteReg(R14, 0x20000001)  returns 0x00 (0000ms, 0705ms total)
TA074 001:168 JLINK_WriteReg(R15 (PC), 0x2000012E)  returns 0x00 (0000ms, 0705ms total)
TA074 001:168 JLINK_WriteReg(XPSR, 0x01000000)  returns 0x00 (0000ms, 0705ms total)
TA074 001:168 JLINK_WriteReg(MSP, 0x20004000)  returns 0x00 (0000ms, 0705ms total)
TA074 001:168 JLINK_WriteReg(PSP, 0x20004000)  returns 0x00 (0000ms, 0705ms total)
TA074 001:168 JLINK_WriteReg(CFBP, 0x00000000)  returns 0x00 (0000ms, 0705ms total)
TA074 001:168 JLINK_SetBPEx(Addr = 0x20000000, Type = 0xFFFFFFF2)  returns 0x00000009 (0000ms, 0705ms total)
TA074 001:168 JLINK_Go() -- CPU_ReadMem(4 bytes @ 0xE0001000) (0002ms, 0707ms total)
TA074 001:170 JLINK_IsHalted() -- CPU_ReadMem(2 bytes @ 0x20000000)  returns TRUE (0003ms, 0710ms total)
TA074 001:173 JLINK_ReadReg(R15 (PC))  returns 0x20000000 (0000ms, 0707ms total)
TA074 001:173 JLINK_ClrBPEx(BPHandle = 0x00000009)  returns 0x00 (0000ms, 0707ms total)
TA074 001:173 JLINK_ReadReg(R0)  returns 0x00000001 (0000ms, 0707ms total)
TA074 001:173 JLINK_WriteReg(R0, 0x0002D000)  returns 0x00 (0000ms, 0707ms total)
TA074 001:173 JLINK_WriteReg(R1, 0x00001000)  returns 0x00 (0000ms, 0707ms total)
TA074 001:173 JLINK_WriteReg(R2, 0x000000FF)  returns 0x00 (0000ms, 0707ms total)
TA074 001:173 JLINK_WriteReg(R3, 0x00000000)  returns 0x00 (0000ms, 0707ms total)
TA074 001:173 JLINK_WriteReg(R4, 0x00000000)  returns 0x00 (0000ms, 0707ms total)
TA074 001:173 JLINK_WriteReg(R5, 0x00000000)  returns 0x00 (0000ms, 0707ms total)
TA074 001:173 JLINK_WriteReg(R6, 0x00000000)  returns 0x00 (0000ms, 0707ms total)
TA074 001:173 JLINK_WriteReg(R7, 0x00000000)  returns 0x00 (0000ms, 0707ms total)
TA074 001:173 JLINK_WriteReg(R8, 0x00000000)  returns 0x00 (0000ms, 0707ms total)
TA074 001:173 JLINK_WriteReg(R9, 0x20000244)  returns 0x00 (0000ms, 0707ms total)
TA074 001:173 JLINK_WriteReg(R10, 0x00000000)  returns 0x00 (0000ms, 0707ms total)
TA074 001:173 JLINK_WriteReg(R11, 0x00000000)  returns 0x00 (0000ms, 0707ms total)
TA074 001:173 JLINK_WriteReg(R12, 0x00000000)  returns 0x00 (0000ms, 0707ms total)
TA074 001:173 JLINK_WriteReg(R13 (SP), 0x20004000)  returns 0x00 (0000ms, 0707ms total)
TA074 001:173 JLINK_WriteReg(R14, 0x20000001)  returns 0x00 (0000ms, 0707ms total)
TA074 001:173 JLINK_WriteReg(R15 (PC), 0x200000EC)  returns 0x00 (0000ms, 0707ms total)
TA074 001:173 JLINK_WriteReg(XPSR, 0x01000000)  returns 0x00 (0000ms, 0707ms total)
TA074 001:173 JLINK_WriteReg(MSP, 0x20004000)  returns 0x00 (0000ms, 0707ms total)
TA074 001:173 JLINK_WriteReg(PSP, 0x20004000)  returns 0x00 (0000ms, 0707ms total)
TA074 001:173 JLINK_WriteReg(CFBP, 0x00000000)  returns 0x00 (0000ms, 0707ms total)
TA074 001:173 JLINK_SetBPEx(Addr = 0x20000000, Type = 0xFFFFFFF2)  returns 0x0000000A (0000ms, 0707ms total)
TA074 001:173 JLINK_Go() -- CPU_ReadMem(4 bytes @ 0xE0001000) (0003ms, 0710ms total)
TA074 001:176 JLINK_IsHalted()  returns FALSE (0000ms, 0710ms total)
TA074 001:178 JLINK_IsHalted()  returns FALSE (0000ms, 0710ms total)
TA074 001:182 JLINK_IsHalted()  returns FALSE (0000ms, 0710ms total)
TA074 001:184 JLINK_IsHalted()  returns FALSE (0000ms, 0710ms total)
TA074 001:186 JLINK_IsHalted()  returns FALSE (0000ms, 0710ms total)
TA074 001:188 JLINK_IsHalted()  returns FALSE (0000ms, 0710ms total)
TA074 001:190 JLINK_IsHalted()  returns FALSE (0000ms, 0710ms total)
TA074 001:192 JLINK_IsHalted()  returns FALSE (0000ms, 0710ms total)
TA074 001:194 JLINK_IsHalted()  returns FALSE (0000ms, 0710ms total)
TA074 001:196 JLINK_IsHalted()  returns FALSE (0000ms, 0710ms total)
TA074 001:198 JLINK_IsHalted()  returns FALSE (0000ms, 0710ms total)
TA074 001:200 JLINK_IsHalted()  returns FALSE (0000ms, 0710ms total)
TA074 001:202 JLINK_IsHalted()  returns FALSE (0000ms, 0710ms total)
TA074 001:204 JLINK_IsHalted()  returns FALSE (0000ms, 0710ms total)
TA074 001:206 JLINK_IsHalted()  returns FALSE (0000ms, 0710ms total)
TA074 001:208 JLINK_IsHalted()  returns FALSE (0000ms, 0710ms total)
TA074 001:210 JLINK_IsHalted()  returns FALSE (0000ms, 0710ms total)
TA074 001:212 JLINK_IsHalted()  returns FALSE (0000ms, 0710ms total)
TA074 001:214 JLINK_IsHalted()  returns FALSE (0000ms, 0710ms total)
TA074 001:216 JLINK_IsHalted()  returns FALSE (0000ms, 0710ms total)
TA074 001:218 JLINK_IsHalted()  returns FALSE (0000ms, 0710ms total)
TA074 001:220 JLINK_IsHalted()  returns FALSE (0000ms, 0710ms total)
TA074 001:222 JLINK_IsHalted()  returns FALSE (0000ms, 0710ms total)
TA074 001:224 JLINK_IsHalted()  returns FALSE (0000ms, 0710ms total)
TA074 001:226 JLINK_IsHalted()  returns FALSE (0000ms, 0710ms total)
TA074 001:228 JLINK_IsHalted()  returns FALSE (0000ms, 0710ms total)
TA074 001:230 JLINK_IsHalted()  returns FALSE (0000ms, 0710ms total)
TA074 001:232 JLINK_IsHalted()  returns FALSE (0000ms, 0710ms total)
TA074 001:234 JLINK_IsHalted()  returns FALSE (0000ms, 0710ms total)
TA074 001:236 JLINK_IsHalted()  returns FALSE (0000ms, 0710ms total)
TA074 001:238 JLINK_IsHalted()  returns FALSE (0000ms, 0710ms total)
TA074 001:240 JLINK_IsHalted()  returns FALSE (0000ms, 0710ms total)
TA074 001:242 JLINK_IsHalted()  returns FALSE (0000ms, 0710ms total)
TA074 001:244 JLINK_IsHalted()  returns FALSE (0000ms, 0710ms total)
TA074 001:246 JLINK_IsHalted()  returns FALSE (0000ms, 0710ms total)
TA074 001:248 JLINK_IsHalted()  returns FALSE (0000ms, 0710ms total)
TA074 001:250 JLINK_IsHalted()  returns FALSE (0000ms, 0710ms total)
TA074 001:252 JLINK_IsHalted()  returns FALSE (0000ms, 0710ms total)
TA074 001:254 JLINK_IsHalted()  returns FALSE (0000ms, 0710ms total)
TA074 001:256 JLINK_IsHalted()  returns FALSE (0000ms, 0710ms total)
TA074 001:258 JLINK_IsHalted()  returns FALSE (0000ms, 0710ms total)
TA074 001:260 JLINK_IsHalted() -- CPU_ReadMem(2 bytes @ 0x20000000)  returns TRUE (0003ms, 0713ms total)
TA074 001:263 JLINK_ReadReg(R15 (PC))  returns 0x20000000 (0000ms, 0710ms total)
TA074 001:263 JLINK_ClrBPEx(BPHandle = 0x0000000A)  returns 0x00 (0000ms, 0710ms total)
TA074 001:263 JLINK_ReadReg(R0)  returns 0x00000000 (0000ms, 0710ms total)
TA074 001:263 JLINK_WriteReg(R0, 0x0002E000)  returns 0x00 (0000ms, 0710ms total)
TA074 001:263 JLINK_WriteReg(R1, 0x00001000)  returns 0x00 (0000ms, 0710ms total)
TA074 001:263 JLINK_WriteReg(R2, 0x000000FF)  returns 0x00 (0000ms, 0710ms total)
TA074 001:263 JLINK_WriteReg(R3, 0x00000000)  returns 0x00 (0000ms, 0710ms total)
TA074 001:264 JLINK_WriteReg(R4, 0x00000000)  returns 0x00 (0000ms, 0711ms total)
TA074 001:264 JLINK_WriteReg(R5, 0x00000000)  returns 0x00 (0000ms, 0711ms total)
TA074 001:264 JLINK_WriteReg(R6, 0x00000000)  returns 0x00 (0000ms, 0711ms total)
TA074 001:264 JLINK_WriteReg(R7, 0x00000000)  returns 0x00 (0000ms, 0711ms total)
TA074 001:264 JLINK_WriteReg(R8, 0x00000000)  returns 0x00 (0000ms, 0711ms total)
TA074 001:264 JLINK_WriteReg(R9, 0x20000244)  returns 0x00 (0000ms, 0711ms total)
TA074 001:264 JLINK_WriteReg(R10, 0x00000000)  returns 0x00 (0000ms, 0711ms total)
TA074 001:264 JLINK_WriteReg(R11, 0x00000000)  returns 0x00 (0000ms, 0711ms total)
TA074 001:264 JLINK_WriteReg(R12, 0x00000000)  returns 0x00 (0000ms, 0711ms total)
TA074 001:264 JLINK_WriteReg(R13 (SP), 0x20004000)  returns 0x00 (0000ms, 0711ms total)
TA074 001:264 JLINK_WriteReg(R14, 0x20000001)  returns 0x00 (0000ms, 0711ms total)
TA074 001:264 JLINK_WriteReg(R15 (PC), 0x2000012E)  returns 0x00 (0000ms, 0711ms total)
TA074 001:264 JLINK_WriteReg(XPSR, 0x01000000)  returns 0x00 (0000ms, 0711ms total)
TA074 001:264 JLINK_WriteReg(MSP, 0x20004000)  returns 0x00 (0000ms, 0711ms total)
TA074 001:264 JLINK_WriteReg(PSP, 0x20004000)  returns 0x00 (0000ms, 0711ms total)
TA074 001:264 JLINK_WriteReg(CFBP, 0x00000000)  returns 0x00 (0000ms, 0711ms total)
TA074 001:264 JLINK_SetBPEx(Addr = 0x20000000, Type = 0xFFFFFFF2)  returns 0x0000000B (0000ms, 0711ms total)
TA074 001:264 JLINK_Go() -- CPU_ReadMem(4 bytes @ 0xE0001000) (0003ms, 0714ms total)
TA074 001:267 JLINK_IsHalted() -- CPU_ReadMem(2 bytes @ 0x20000000)  returns TRUE (0002ms, 0716ms total)
TA074 001:269 JLINK_ReadReg(R15 (PC))  returns 0x20000000 (0000ms, 0714ms total)
TA074 001:269 JLINK_ClrBPEx(BPHandle = 0x0000000B)  returns 0x00 (0000ms, 0714ms total)
TA074 001:269 JLINK_ReadReg(R0)  returns 0x00000001 (0000ms, 0714ms total)
TA074 001:269 JLINK_WriteReg(R0, 0x0002E000)  returns 0x00 (0000ms, 0714ms total)
TA074 001:269 JLINK_WriteReg(R1, 0x00001000)  returns 0x00 (0000ms, 0714ms total)
TA074 001:269 JLINK_WriteReg(R2, 0x000000FF)  returns 0x00 (0000ms, 0714ms total)
TA074 001:269 JLINK_WriteReg(R3, 0x00000000)  returns 0x00 (0000ms, 0714ms total)
TA074 001:269 JLINK_WriteReg(R4, 0x00000000)  returns 0x00 (0000ms, 0714ms total)
TA074 001:269 JLINK_WriteReg(R5, 0x00000000)  returns 0x00 (0000ms, 0714ms total)
TA074 001:269 JLINK_WriteReg(R6, 0x00000000)  returns 0x00 (0001ms, 0715ms total)
TA074 001:270 JLINK_WriteReg(R7, 0x00000000)  returns 0x00 (0000ms, 0715ms total)
TA074 001:270 JLINK_WriteReg(R8, 0x00000000)  returns 0x00 (0000ms, 0715ms total)
TA074 001:270 JLINK_WriteReg(R9, 0x20000244)  returns 0x00 (0000ms, 0715ms total)
TA074 001:270 JLINK_WriteReg(R10, 0x00000000)  returns 0x00 (0000ms, 0715ms total)
TA074 001:270 JLINK_WriteReg(R11, 0x00000000)  returns 0x00 (0000ms, 0715ms total)
TA074 001:270 JLINK_WriteReg(R12, 0x00000000)  returns 0x00 (0000ms, 0715ms total)
TA074 001:270 JLINK_WriteReg(R13 (SP), 0x20004000)  returns 0x00 (0000ms, 0715ms total)
TA074 001:270 JLINK_WriteReg(R14, 0x20000001)  returns 0x00 (0000ms, 0715ms total)
TA074 001:270 JLINK_WriteReg(R15 (PC), 0x200000EC)  returns 0x00 (0000ms, 0715ms total)
TA074 001:270 JLINK_WriteReg(XPSR, 0x01000000)  returns 0x00 (0000ms, 0715ms total)
TA074 001:270 JLINK_WriteReg(MSP, 0x20004000)  returns 0x00 (0000ms, 0715ms total)
TA074 001:270 JLINK_WriteReg(PSP, 0x20004000)  returns 0x00 (0000ms, 0715ms total)
TA074 001:270 JLINK_WriteReg(CFBP, 0x00000000)  returns 0x00 (0000ms, 0715ms total)
TA074 001:270 JLINK_SetBPEx(Addr = 0x20000000, Type = 0xFFFFFFF2)  returns 0x0000000C (0000ms, 0715ms total)
TA074 001:270 JLINK_Go() -- CPU_ReadMem(4 bytes @ 0xE0001000) (0003ms, 0718ms total)
TA074 001:273 JLINK_IsHalted()  returns FALSE (0000ms, 0718ms total)
TA074 001:277 JLINK_IsHalted()  returns FALSE (0000ms, 0718ms total)
TA074 001:279 JLINK_IsHalted()  returns FALSE (0000ms, 0718ms total)
TA074 001:281 JLINK_IsHalted()  returns FALSE (0000ms, 0718ms total)
TA074 001:283 JLINK_IsHalted()  returns FALSE (0000ms, 0718ms total)
TA074 001:285 JLINK_IsHalted()  returns FALSE (0000ms, 0718ms total)
TA074 001:287 JLINK_IsHalted()  returns FALSE (0000ms, 0718ms total)
TA074 001:289 JLINK_IsHalted()  returns FALSE (0000ms, 0718ms total)
TA074 001:291 JLINK_IsHalted()  returns FALSE (0000ms, 0718ms total)
TA074 001:293 JLINK_IsHalted()  returns FALSE (0000ms, 0718ms total)
TA074 001:295 JLINK_IsHalted()  returns FALSE (0000ms, 0718ms total)
TA074 001:297 JLINK_IsHalted()  returns FALSE (0000ms, 0718ms total)
TA074 001:299 JLINK_IsHalted()  returns FALSE (0000ms, 0718ms total)
TA074 001:301 JLINK_IsHalted()  returns FALSE (0000ms, 0718ms total)
TA074 001:303 JLINK_IsHalted()  returns FALSE (0000ms, 0718ms total)
TA074 001:305 JLINK_IsHalted()  returns FALSE (0000ms, 0718ms total)
TA074 001:307 JLINK_IsHalted()  returns FALSE (0000ms, 0718ms total)
TA074 001:309 JLINK_IsHalted()  returns FALSE (0000ms, 0718ms total)
TA074 001:311 JLINK_IsHalted()  returns FALSE (0000ms, 0718ms total)
TA074 001:313 JLINK_IsHalted()  returns FALSE (0000ms, 0718ms total)
TA074 001:315 JLINK_IsHalted()  returns FALSE (0000ms, 0718ms total)
TA074 001:317 JLINK_IsHalted()  returns FALSE (0000ms, 0718ms total)
TA074 001:319 JLINK_IsHalted()  returns FALSE (0000ms, 0718ms total)
TA074 001:321 JLINK_IsHalted()  returns FALSE (0000ms, 0718ms total)
TA074 001:323 JLINK_IsHalted()  returns FALSE (0000ms, 0718ms total)
TA074 001:325 JLINK_IsHalted()  returns FALSE (0000ms, 0718ms total)
TA074 001:327 JLINK_IsHalted()  returns FALSE (0000ms, 0718ms total)
TA074 001:329 JLINK_IsHalted()  returns FALSE (0000ms, 0718ms total)
TA074 001:331 JLINK_IsHalted()  returns FALSE (0000ms, 0718ms total)
TA074 001:333 JLINK_IsHalted()  returns FALSE (0000ms, 0718ms total)
TA074 001:335 JLINK_IsHalted()  returns FALSE (0000ms, 0718ms total)
TA074 001:337 JLINK_IsHalted()  returns FALSE (0000ms, 0718ms total)
TA074 001:339 JLINK_IsHalted()  returns FALSE (0000ms, 0718ms total)
TA074 001:341 JLINK_IsHalted()  returns FALSE (0000ms, 0718ms total)
TA074 001:343 JLINK_IsHalted()  returns FALSE (0000ms, 0718ms total)
TA074 001:345 JLINK_IsHalted()  returns FALSE (0000ms, 0718ms total)
TA074 001:347 JLINK_IsHalted()  returns FALSE (0000ms, 0718ms total)
TA074 001:349 JLINK_IsHalted()  returns FALSE (0000ms, 0718ms total)
TA074 001:351 JLINK_IsHalted()  returns FALSE (0000ms, 0718ms total)
TA074 001:353 JLINK_IsHalted()  returns FALSE (0000ms, 0718ms total)
TA074 001:355 JLINK_IsHalted()  returns FALSE (0000ms, 0718ms total)
TA074 001:357 JLINK_IsHalted()  returns FALSE (0000ms, 0718ms total)
TA074 001:359 JLINK_IsHalted() -- CPU_ReadMem(2 bytes @ 0x20000000)  returns TRUE (0002ms, 0720ms total)
TA074 001:361 JLINK_ReadReg(R15 (PC))  returns 0x20000000 (0001ms, 0719ms total)
TA074 001:362 JLINK_ClrBPEx(BPHandle = 0x0000000C)  returns 0x00 (0000ms, 0719ms total)
TA074 001:362 JLINK_ReadReg(R0)  returns 0x00000000 (0000ms, 0719ms total)
TA074 001:363 JLINK_WriteReg(R0, 0x0002F000)  returns 0x00 (0000ms, 0719ms total)
TA074 001:363 JLINK_WriteReg(R1, 0x00001000)  returns 0x00 (0000ms, 0719ms total)
TA074 001:363 JLINK_WriteReg(R2, 0x000000FF)  returns 0x00 (0000ms, 0719ms total)
TA074 001:363 JLINK_WriteReg(R3, 0x00000000)  returns 0x00 (0000ms, 0719ms total)
TA074 001:363 JLINK_WriteReg(R4, 0x00000000)  returns 0x00 (0000ms, 0719ms total)
TA074 001:363 JLINK_WriteReg(R5, 0x00000000)  returns 0x00 (0000ms, 0719ms total)
TA074 001:363 JLINK_WriteReg(R6, 0x00000000)  returns 0x00 (0000ms, 0719ms total)
TA074 001:363 JLINK_WriteReg(R7, 0x00000000)  returns 0x00 (0000ms, 0719ms total)
TA074 001:363 JLINK_WriteReg(R8, 0x00000000)  returns 0x00 (0000ms, 0719ms total)
TA074 001:363 JLINK_WriteReg(R9, 0x20000244)  returns 0x00 (0000ms, 0719ms total)
TA074 001:363 JLINK_WriteReg(R10, 0x00000000)  returns 0x00 (0000ms, 0719ms total)
TA074 001:363 JLINK_WriteReg(R11, 0x00000000)  returns 0x00 (0000ms, 0719ms total)
TA074 001:363 JLINK_WriteReg(R12, 0x00000000)  returns 0x00 (0000ms, 0719ms total)
TA074 001:363 JLINK_WriteReg(R13 (SP), 0x20004000)  returns 0x00 (0000ms, 0719ms total)
TA074 001:363 JLINK_WriteReg(R14, 0x20000001)  returns 0x00 (0000ms, 0719ms total)
TA074 001:363 JLINK_WriteReg(R15 (PC), 0x2000012E)  returns 0x00 (0000ms, 0719ms total)
TA074 001:363 JLINK_WriteReg(XPSR, 0x01000000)  returns 0x00 (0000ms, 0719ms total)
TA074 001:363 JLINK_WriteReg(MSP, 0x20004000)  returns 0x00 (0001ms, 0720ms total)
TA074 001:364 JLINK_WriteReg(PSP, 0x20004000)  returns 0x00 (0000ms, 0720ms total)
TA074 001:364 JLINK_WriteReg(CFBP, 0x00000000)  returns 0x00 (0000ms, 0720ms total)
TA074 001:364 JLINK_SetBPEx(Addr = 0x20000000, Type = 0xFFFFFFF2)  returns 0x0000000D (0000ms, 0720ms total)
TA074 001:364 JLINK_Go() -- CPU_ReadMem(4 bytes @ 0xE0001000) (0002ms, 0722ms total)
TA074 001:366 JLINK_IsHalted() -- CPU_ReadMem(2 bytes @ 0x20000000)  returns TRUE (0003ms, 0725ms total)
TA074 001:369 JLINK_ReadReg(R15 (PC))  returns 0x20000000 (0000ms, 0722ms total)
TA074 001:369 JLINK_ClrBPEx(BPHandle = 0x0000000D)  returns 0x00 (0000ms, 0722ms total)
TA074 001:369 JLINK_ReadReg(R0)  returns 0x00000001 (0000ms, 0722ms total)
TA074 001:369 JLINK_WriteReg(R0, 0x0002F000)  returns 0x00 (0000ms, 0722ms total)
TA074 001:369 JLINK_WriteReg(R1, 0x00001000)  returns 0x00 (0000ms, 0722ms total)
TA074 001:369 JLINK_WriteReg(R2, 0x000000FF)  returns 0x00 (0000ms, 0722ms total)
TA074 001:369 JLINK_WriteReg(R3, 0x00000000)  returns 0x00 (0000ms, 0722ms total)
TA074 001:369 JLINK_WriteReg(R4, 0x00000000)  returns 0x00 (0000ms, 0722ms total)
TA074 001:369 JLINK_WriteReg(R5, 0x00000000)  returns 0x00 (0000ms, 0722ms total)
TA074 001:369 JLINK_WriteReg(R6, 0x00000000)  returns 0x00 (0000ms, 0722ms total)
TA074 001:369 JLINK_WriteReg(R7, 0x00000000)  returns 0x00 (0000ms, 0722ms total)
TA074 001:369 JLINK_WriteReg(R8, 0x00000000)  returns 0x00 (0000ms, 0722ms total)
TA074 001:369 JLINK_WriteReg(R9, 0x20000244)  returns 0x00 (0000ms, 0722ms total)
TA074 001:369 JLINK_WriteReg(R10, 0x00000000)  returns 0x00 (0000ms, 0722ms total)
TA074 001:369 JLINK_WriteReg(R11, 0x00000000)  returns 0x00 (0000ms, 0722ms total)
TA074 001:369 JLINK_WriteReg(R12, 0x00000000)  returns 0x00 (0000ms, 0722ms total)
TA074 001:369 JLINK_WriteReg(R13 (SP), 0x20004000)  returns 0x00 (0000ms, 0722ms total)
TA074 001:369 JLINK_WriteReg(R14, 0x20000001)  returns 0x00 (0000ms, 0722ms total)
TA074 001:369 JLINK_WriteReg(R15 (PC), 0x200000EC)  returns 0x00 (0001ms, 0723ms total)
TA074 001:370 JLINK_WriteReg(XPSR, 0x01000000)  returns 0x00 (0000ms, 0723ms total)
TA074 001:370 JLINK_WriteReg(MSP, 0x20004000)  returns 0x00 (0000ms, 0723ms total)
TA074 001:370 JLINK_WriteReg(PSP, 0x20004000)  returns 0x00 (0000ms, 0723ms total)
TA074 001:370 JLINK_WriteReg(CFBP, 0x00000000)  returns 0x00 (0000ms, 0723ms total)
TA074 001:370 JLINK_SetBPEx(Addr = 0x20000000, Type = 0xFFFFFFF2)  returns 0x0000000E (0000ms, 0723ms total)
TA074 001:370 JLINK_Go() -- CPU_ReadMem(4 bytes @ 0xE0001000) (0002ms, 0725ms total)
TA074 001:372 JLINK_IsHalted()  returns FALSE (0001ms, 0726ms total)
TA074 001:375 JLINK_IsHalted()  returns FALSE (0000ms, 0725ms total)
TA074 001:377 JLINK_IsHalted()  returns FALSE (0000ms, 0725ms total)
TA074 001:381 JLINK_IsHalted()  returns FALSE (0000ms, 0725ms total)
TA074 001:383 JLINK_IsHalted()  returns FALSE (0000ms, 0725ms total)
TA074 001:385 JLINK_IsHalted()  returns FALSE (0000ms, 0725ms total)
TA074 001:387 JLINK_IsHalted()  returns FALSE (0000ms, 0725ms total)
TA074 001:389 JLINK_IsHalted()  returns FALSE (0000ms, 0725ms total)
TA074 001:391 JLINK_IsHalted()  returns FALSE (0000ms, 0725ms total)
TA074 001:393 JLINK_IsHalted()  returns FALSE (0000ms, 0725ms total)
TA074 001:395 JLINK_IsHalted()  returns FALSE (0000ms, 0725ms total)
TA074 001:397 JLINK_IsHalted()  returns FALSE (0000ms, 0725ms total)
TA074 001:400 JLINK_IsHalted()  returns FALSE (0000ms, 0725ms total)
TA074 001:402 JLINK_IsHalted()  returns FALSE (0000ms, 0725ms total)
TA074 001:404 JLINK_IsHalted()  returns FALSE (0000ms, 0725ms total)
TA074 001:406 JLINK_IsHalted()  returns FALSE (0000ms, 0725ms total)
TA074 001:408 JLINK_IsHalted()  returns FALSE (0000ms, 0725ms total)
TA074 001:410 JLINK_IsHalted()  returns FALSE (0000ms, 0725ms total)
TA074 001:412 JLINK_IsHalted()  returns FALSE (0000ms, 0725ms total)
TA074 001:414 JLINK_IsHalted()  returns FALSE (0000ms, 0725ms total)
TA074 001:416 JLINK_IsHalted()  returns FALSE (0000ms, 0725ms total)
TA074 001:418 JLINK_IsHalted()  returns FALSE (0000ms, 0725ms total)
TA074 001:420 JLINK_IsHalted()  returns FALSE (0000ms, 0725ms total)
TA074 001:422 JLINK_IsHalted()  returns FALSE (0000ms, 0725ms total)
TA074 001:424 JLINK_IsHalted()  returns FALSE (0000ms, 0725ms total)
TA074 001:426 JLINK_IsHalted()  returns FALSE (0000ms, 0725ms total)
TA074 001:428 JLINK_IsHalted()  returns FALSE (0000ms, 0725ms total)
TA074 001:430 JLINK_IsHalted()  returns FALSE (0000ms, 0725ms total)
TA074 001:432 JLINK_IsHalted()  returns FALSE (0000ms, 0725ms total)
TA074 001:434 JLINK_IsHalted()  returns FALSE (0000ms, 0725ms total)
TA074 001:436 JLINK_IsHalted()  returns FALSE (0001ms, 0726ms total)
TA074 001:439 JLINK_IsHalted()  returns FALSE (0000ms, 0725ms total)
TA074 001:441 JLINK_IsHalted()  returns FALSE (0000ms, 0725ms total)
TA074 001:443 JLINK_IsHalted()  returns FALSE (0000ms, 0725ms total)
TA074 001:445 JLINK_IsHalted()  returns FALSE (0000ms, 0725ms total)
TA074 001:447 JLINK_IsHalted()  returns FALSE (0000ms, 0725ms total)
TA074 001:449 JLINK_IsHalted()  returns FALSE (0000ms, 0725ms total)
TA074 001:451 JLINK_IsHalted()  returns FALSE (0000ms, 0725ms total)
TA074 001:453 JLINK_IsHalted()  returns FALSE (0000ms, 0725ms total)
TA074 001:455 JLINK_IsHalted()  returns FALSE (0000ms, 0725ms total)
TA074 001:457 JLINK_IsHalted() -- CPU_ReadMem(2 bytes @ 0x20000000)  returns TRUE (0002ms, 0727ms total)
TA074 001:459 JLINK_ReadReg(R15 (PC))  returns 0x20000000 (0000ms, 0725ms total)
TA074 001:459 JLINK_ClrBPEx(BPHandle = 0x0000000E)  returns 0x00 (0000ms, 0725ms total)
TA074 001:459 JLINK_ReadReg(R0)  returns 0x00000000 (0000ms, 0725ms total)
TA074 001:460 JLINK_WriteReg(R0, 0x00000001)  returns 0x00 (0000ms, 0725ms total)
TA074 001:460 JLINK_WriteReg(R1, 0x00001000)  returns 0x00 (0000ms, 0725ms total)
TA074 001:460 JLINK_WriteReg(R2, 0x000000FF)  returns 0x00 (0000ms, 0725ms total)
TA074 001:460 JLINK_WriteReg(R3, 0x00000000)  returns 0x00 (0000ms, 0725ms total)
TA074 001:460 JLINK_WriteReg(R4, 0x00000000)  returns 0x00 (0000ms, 0725ms total)
TA074 001:460 JLINK_WriteReg(R5, 0x00000000)  returns 0x00 (0000ms, 0725ms total)
TA074 001:460 JLINK_WriteReg(R6, 0x00000000)  returns 0x00 (0000ms, 0725ms total)
TA074 001:460 JLINK_WriteReg(R7, 0x00000000)  returns 0x00 (0000ms, 0725ms total)
TA074 001:460 JLINK_WriteReg(R8, 0x00000000)  returns 0x00 (0000ms, 0725ms total)
TA074 001:460 JLINK_WriteReg(R9, 0x20000244)  returns 0x00 (0000ms, 0725ms total)
TA074 001:460 JLINK_WriteReg(R10, 0x00000000)  returns 0x00 (0000ms, 0725ms total)
TA074 001:460 JLINK_WriteReg(R11, 0x00000000)  returns 0x00 (0000ms, 0725ms total)
